T351C 000:165.633   SEGGER J-Link V6.54c Log File
T351C 000:166.210   DLL Compiled: Nov  7 2019 17:01:02
T351C 000:166.250   Logging started @ 2019-12-29 21:44
T351C 000:166.300 JLINK_SetWarnOutHandler(...)
T351C 000:166.347 - 0.066ms
T351C 000:166.400 JLINK_OpenEx(...)
T351C 000:168.492   Firmware: J-Link OB-SAM3U128-V2-NordicSemi compiled Jan  7 2019 14:07:15
T351C 000:170.358   Hardware: V1.00
T351C 000:170.452   S/N: 681309918
T351C 000:170.504   OEM: SEGGER
T351C 000:170.574   Feature(s): None
T351C 000:172.115   TELNET listener socket opened on port 19021
T351C 000:218.620   WEBSRV Starting webserver
T351C 000:219.416   WEBSRV Webserver running on local port 19080
T351C 000:219.494 - 53.112ms returns "O.K."
T351C 000:219.581 JLINK_SetErrorOutHandler(...)
T351C 000:219.617 - 0.053ms
T351C 000:219.703 JLINK_ExecCommand("ProjectFile = "C:\Users\knigh\Documents\nRF5_SDK_12.3.0_d7731ad-1\nRF5_SDK_12.3.0_d7731ad\examples\peripheral\bandSensorCode_12.3\pca10028\blank\arm4\JLinkSettings.ini"", ...). 
T351C 000:230.415   Ref file found at: C:\Keil\ARM\Segger\JLinkDevices.ref
T351C 000:230.822   XML referenced by ref file: C:\Program Files (x86)\SEGGER\JLink\JLinkDevices.xml
T351C 000:236.470   C:\Program Files (x86)\SEGGER\JLink\JLinkDevices.xml evaluated successfully.
T351C 000:613.765 - 394.118ms returns 0x00
T351C 000:618.780 JLINK_ExecCommand("Device = nRF51422_xxAC", ...). 
T351C 000:623.513   Device "NRF51422_XXAC" selected.
T351C 000:627.212 - 8.401ms returns 0x00
T351C 000:627.282 JLINK_ExecCommand("DisableConnectionTimeout", ...). 
T351C 000:627.333 - 0.026ms returns 0x01
T351C 000:627.378 JLINK_GetHardwareVersion()
T351C 000:627.432 - 0.072ms returns 0x2710
T351C 000:627.482 JLINK_GetDLLVersion()  returns 65403
T351C 000:627.538 JLINK_GetFirmwareString(...)
T351C 000:627.574 - 0.053ms
T351C 000:637.099 JLINK_GetDLLVersion()  returns 65403
T351C 000:637.160 JLINK_GetCompileDateTime()
T351C 000:637.195 - 0.053ms
T351C 000:640.488 JLINK_GetFirmwareString(...)
T351C 000:640.536 - 0.067ms
T351C 000:643.790 JLINK_GetHardwareVersion()
T351C 000:643.841 - 0.070ms returns 0x2710
T351C 000:653.835 JLINK_TIF_Select(JLINKARM_TIF_SWD)
T351C 000:654.772 - 0.989ms returns 0x00
T351C 000:654.888 JLINK_SetSpeed(2000)
T351C 000:655.057 - 0.194ms
T351C 000:655.111 JLINK_GetId()
T351C 000:659.813   Found SW-DP with ID 0x0BB11477
T351C 000:666.466   Scanning AP map to find all available APs
T351C 000:672.009   AP[1]: Stopped AP scan as end of AP map has been reached
T351C 000:675.262   AP[0]: AHB-AP (IDR: 0x04770021)
T351C 000:678.405   Iterating through AP map to find AHB-AP to use
T351C 000:686.755   AP[0]: Core found
T351C 000:689.896   AP[0]: AHB-AP ROM base: 0xF0000000
T351C 000:695.522   CPUID register: 0x410CC200. Implementer code: 0x41 (ARM)
T351C 000:698.797   Found Cortex-M0 r0p0, Little endian.
T351C 000:800.600    -- Max. mem block: 0x00004A98
T351C 000:800.706    -- CPU_ReadMem(4 bytes @ 0xE000EDF0)
T351C 000:801.417    -- CPU_WriteMem(4 bytes @ 0xE000EDF0)
T351C 000:802.057    -- CPU_ReadMem(4 bytes @ 0xE0002000)
T351C 000:818.436   FPUnit: 4 code (BP) slots and 0 literal slots
T351C 000:818.537    -- CPU_ReadMem(4 bytes @ 0xE000EDFC)
T351C 000:819.189    -- CPU_WriteMem(4 bytes @ 0xE000EDFC)
T351C 000:819.865    -- CPU_ReadMem(4 bytes @ 0xE0001000)
T351C 000:820.481    -- CPU_WriteMem(4 bytes @ 0xE0001000)
T351C 000:836.685   CoreSight components:
T351C 000:852.305   ROMTbl[0] @ F0000000
T351C 000:852.405    -- CPU_ReadMem(16 bytes @ 0xF0000000)
T351C 000:853.211    -- CPU_ReadMem(16 bytes @ 0xE00FFFF0)
T351C 000:853.995    -- CPU_ReadMem(16 bytes @ 0xE00FFFE0)
T351C 000:870.401   ROMTbl[0][0]: E00FF000, CID: B105100D, PID: 000BB471 ROM Table
T351C 000:886.838   ROMTbl[1] @ E00FF000
T351C 000:886.939    -- CPU_ReadMem(16 bytes @ 0xE00FF000)
T351C 000:887.794    -- CPU_ReadMem(16 bytes @ 0xE000EFF0)
T351C 000:888.568    -- CPU_ReadMem(16 bytes @ 0xE000EFE0)
T351C 000:903.058   ROMTbl[1][0]: E000E000, CID: B105E00D, PID: 000BB008 SCS
T351C 000:903.161    -- CPU_ReadMem(16 bytes @ 0xE0001FF0)
T351C 000:903.952    -- CPU_ReadMem(16 bytes @ 0xE0001FE0)
T351C 000:919.595   ROMTbl[1][1]: E0001000, CID: B105E00D, PID: 000BB00A DWT
T351C 000:919.698    -- CPU_ReadMem(16 bytes @ 0xE0002FF0)
T351C 000:920.524    -- CPU_ReadMem(16 bytes @ 0xE0002FE0)
T351C 000:935.657   ROMTbl[1][2]: E0002000, CID: B105E00D, PID: 000BB00B FPB
T351C 000:935.759    -- CPU_ReadMem(16 bytes @ 0xF0002FF0)
T351C 000:936.555    -- CPU_ReadMem(16 bytes @ 0xF0002FE0)
T351C 000:952.447   ROMTbl[0][1]: F0002000, CID: B105900D, PID: 000BB9A3 ???
T351C 000:952.570    -- CPU_ReadMem(4 bytes @ 0x10001004)
T351C 000:953.638 - 298.581ms   returns 0x0BB11477
T351C 000:953.734   JLINK_GetDeviceFamily()
T351C 000:953.785 - 0.070ms returns 6
T351C 000:968.729 JLINK_ReadMem (0xE00FFFF0, 0x0010 Bytes, ...)
T351C 000:968.856    -- CPU_ReadMem(16 bytes @ 0xE00FFFF0)
T351C 000:969.668   Data:  0D 00 00 00 10 00 00 00 05 00 00 00 B1 00 00 00
T351C 000:969.722 - 1.011ms returns 0x00
T351C 000:969.768 JLINK_ReadMem (0xE00FFFD0, 0x0020 Bytes, ...)
T351C 000:969.815    -- CPU_ReadMem(32 bytes @ 0xE00FFFD0)
T351C 000:970.775   Data:  04 00 00 00 00 00 00 00 00 00 00 00 00 00 00 00 ...
T351C 000:970.829 - 1.079ms returns 0x00
T351C 000:970.874 JLINK_ReadMem (0xE00FF000, 0x0018 Bytes, ...)
T351C 000:970.922    -- CPU_ReadMem(24 bytes @ 0xE00FF000)
T351C 000:971.817   Data:  03 F0 F0 FF 03 20 F0 FF 03 30 F0 FF 00 00 00 00 ...
T351C 000:971.871 - 1.015ms returns 0x00
T351C 000:971.929   JLINK_ReadMemU32(0xE000ED00, 0x0001 Items, ...)
T351C 000:971.992    -- CPU_ReadMem(4 bytes @ 0xE000ED00)
T351C 000:972.569   Data:  00 C2 0C 41
T351C 000:972.630    - CPUID
T351C 000:972.680 - 0.770ms returns 1
T351C 000:972.732 JLINK_SetResetType(JLINKARM_CM3_RESET_TYPE_NORMAL)
T351C 000:972.768 - 0.053ms returns JLINKARM_CM3_RESET_TYPE_NORMAL
T351C 000:972.810 JLINK_Reset()
T351C 000:972.870   CPU is running
T351C 000:972.925    -- CPU_WriteMem(4 bytes @ 0xE000EDF0)
T351C 000:973.519   CPU is running
T351C 000:973.575    -- CPU_WriteMem(4 bytes @ 0xE000EDFC)
T351C 000:988.850   Reset: Halt core after reset via DEMCR.VC_CORERESET.
T351C 001:003.984   Reset: Reset device via AIRCR.SYSRESETREQ.
T351C 001:004.113   CPU is running
T351C 001:004.176    -- CPU_WriteMem(4 bytes @ 0xE000ED0C)
T351C 001:057.640    -- CPU_ReadMem(4 bytes @ 0xE000EDF0)
T351C 001:058.294    -- CPU_ReadMem(4 bytes @ 0xE000EDF0)
T351C 001:058.924   CPU is running
T351C 001:059.003    -- CPU_WriteMem(4 bytes @ 0xE000EDF0)
T351C 001:059.619   CPU is running
T351C 001:059.682    -- CPU_WriteMem(4 bytes @ 0xE000EDFC)
T351C 001:066.021    -- CPU_ReadMem(4 bytes @ 0xE000EDF0)
T351C 001:072.829    -- CPU_WriteMem(4 bytes @ 0xE0002000)
T351C 001:073.512    -- CPU_ReadMem(4 bytes @ 0xE000EDFC)
T351C 001:074.092    -- CPU_ReadMem(4 bytes @ 0xE0001000)
T351C 001:074.696    -- CPU_WriteMem(4 bytes @ 0xE0001000)
T351C 001:075.370 - 102.584ms
T351C 001:075.524 JLINK_Halt()
T351C 001:075.561 - 0.054ms returns 0x00
T351C 001:075.603 JLINK_IsHalted()
T351C 001:075.639 - 0.054ms returns TRUE
T351C 001:075.684   JLINK_ReadMemU32(0xE000EDF0, 0x0001 Items, ...)
T351C 001:075.752    -- CPU_ReadMem(4 bytes @ 0xE000EDF0)
T351C 001:076.375   Data:  03 00 03 00
T351C 001:076.451    - DHCSR
T351C 001:076.501 - 0.837ms returns 1
T351C 001:076.577   JLINK_WriteU32(0xE000EDF0, 0xA05F0003)
T351C 001:076.630    - DHCSR
T351C 001:076.723    -- CPU_WriteMem(4 bytes @ 0xE000EDF0)
T351C 001:077.411 - 0.879ms returns 0
T351C 001:077.481   JLINK_WriteU32(0xE000EDFC, 0x01000000)
T351C 001:077.534    - DEMCR
T351C 001:077.608    -- CPU_WriteMem(4 bytes @ 0xE000EDFC)
T351C 001:078.249 - 0.804ms returns 0
T351C 001:134.853 JLINK_GetHWStatus(...)
T351C 001:135.200 - 0.377ms returns 0x00
T351C 001:178.241 JLINK_GetNumBPUnits(Type = 0xFFFFFF00)
T351C 001:178.318 - 0.095ms returns 0x04
T351C 001:178.361 JLINK_GetNumBPUnits(Type = 0xF0)
T351C 001:178.397 - 0.053ms returns 0x2000
T351C 001:178.439 JLINK_GetNumWPUnits()
T351C 001:178.473 - 0.052ms returns 0x02
T351C 001:223.230 JLINK_GetSpeed()
T351C 001:223.303 - 0.092ms returns 0x3E8
T351C 001:252.335   JLINK_ReadMemU32(0xE000E004, 0x0001 Items, ...)
T351C 001:252.450    -- CPU_ReadMem(4 bytes @ 0xE000E004)
T351C 001:253.105   Data:  00 00 00 00
T351C 001:253.172 - 0.859ms returns 1
T351C 001:253.248 JLINK_Halt()
T351C 001:253.284 - 0.054ms returns 0x00
T351C 001:253.327 JLINK_IsHalted()
T351C 001:253.364 - 0.055ms returns TRUE
T351C 001:263.263 JLINK_WriteMem(0x20000000, 0x0478 Bytes, ...)
T351C 001:263.318   Data:  00 BE 0A E0 0D 78 2D 06 68 40 08 24 40 00 00 D3 ...
T351C 001:265.071    -- CPU_WriteMem(1144 bytes @ 0x20000000)
T351C 001:281.085 - 17.876ms returns 0x478
T351C 001:281.272 JLINK_WriteReg(R0, 0x00000000)
T351C 001:281.322 - 0.070ms returns 0x00
T351C 001:281.366 JLINK_WriteReg(R1, 0x00F42400)
T351C 001:281.406 - 0.059ms returns 0x00
T351C 001:281.450 JLINK_WriteReg(R2, 0x00000001)
T351C 001:281.490 - 0.059ms returns 0x00
T351C 001:281.534 JLINK_WriteReg(R3, 0x00000000)
T351C 001:281.575 - 0.059ms returns 0x00
T351C 001:281.618 JLINK_WriteReg(R4, 0x00000000)
T351C 001:281.659 - 0.059ms returns 0x00
T351C 001:281.702 JLINK_WriteReg(R5, 0x00000000)
T351C 001:281.743 - 0.059ms returns 0x00
T351C 001:281.786 JLINK_WriteReg(R6, 0x00000000)
T351C 001:281.826 - 0.059ms returns 0x00
T351C 001:281.870 JLINK_WriteReg(R7, 0x00000000)
T351C 001:281.910 - 0.059ms returns 0x00
T351C 001:281.954 JLINK_WriteReg(R8, 0x00000000)
T351C 001:282.025 - 0.090ms returns 0x00
T351C 001:282.069 JLINK_WriteReg(R9, 0x20000474)
T351C 001:282.110 - 0.059ms returns 0x00
T351C 001:282.153 JLINK_WriteReg(R10, 0x00000000)
T351C 001:282.194 - 0.059ms returns 0x00
T351C 001:282.237 JLINK_WriteReg(R11, 0x00000000)
T351C 001:282.278 - 0.059ms returns 0x00
T351C 001:282.321 JLINK_WriteReg(R12, 0x00000000)
T351C 001:282.362 - 0.059ms returns 0x00
T351C 001:282.405 JLINK_WriteReg(R13 (SP), 0x20002000)
T351C 001:282.447 - 0.061ms returns 0x00
T351C 001:282.491 JLINK_WriteReg(R14, 0x20000001)
T351C 001:282.531 - 0.059ms returns 0x00
T351C 001:282.575 JLINK_WriteReg(R15 (PC), 0x20000028)
T351C 001:282.615 - 0.059ms returns 0x00
T351C 001:282.659 JLINK_WriteReg(XPSR, 0x01000000)
T351C 001:282.699 - 0.059ms returns 0x00
T351C 001:282.743 JLINK_WriteReg(MSP, 0x20002000)
T351C 001:282.783 - 0.059ms returns 0x00
T351C 001:282.827 JLINK_WriteReg(PSP, 0x20002000)
T351C 001:282.868 - 0.060ms returns 0x00
T351C 001:282.911 JLINK_WriteReg(CFBP, 0x00000000)
T351C 001:282.952 - 0.073ms returns 0x00
T351C 001:283.019   JLINK_SetBPEx(Addr = 0x20000000, Type = 0xFFFFFFF2)
T351C 001:283.087    -- CPU_ReadMem(2 bytes @ 0x20000000)
T351C 001:283.783 - 0.794ms returns 0x00000001
T351C 001:283.848 JLINK_Go()
T351C 001:283.897    -- CPU_WriteMem(2 bytes @ 0x20000000)
T351C 001:284.582    -- CPU_ReadMem(4 bytes @ 0xE0001000)
T351C 001:285.215    -- CPU_WriteMem(4 bytes @ 0xE0001000)
T351C 001:285.280    -- CPU_WriteMem(4 bytes @ 0xE0002008)
T351C 001:285.335    -- CPU_WriteMem(4 bytes @ 0xE000200C)
T351C 001:285.389    -- CPU_WriteMem(4 bytes @ 0xE0002010)
T351C 001:285.443    -- CPU_WriteMem(4 bytes @ 0xE0002014)
T351C 001:287.716    -- CPU_WriteMem(4 bytes @ 0xE0001004)
T351C 001:293.953 - 10.163ms
T351C 001:294.051 JLINK_IsHalted()
T351C 001:300.103    -- CPU_ReadMem(2 bytes @ 0x20000000)
T351C 001:300.762 - 6.762ms returns TRUE
T351C 001:300.854 JLINK_ReadReg(R15 (PC))
T351C 001:300.902 - 0.067ms returns 0x20000000
T351C 001:300.951 JLINK_ClrBPEx(BPHandle = 0x00000001)
T351C 001:301.024 - 0.093ms returns 0x00
T351C 001:301.075 JLINK_ReadReg(R0)
T351C 001:301.116 - 0.060ms returns 0x00000000
T351C 001:302.075 JLINK_WriteReg(R0, 0x00000000)
T351C 001:302.149 - 0.095ms returns 0x00
T351C 001:302.194 JLINK_WriteReg(R1, 0x00000400)
T351C 001:302.234 - 0.059ms returns 0x00
T351C 001:302.278 JLINK_WriteReg(R2, 0x000000FF)
T351C 001:302.318 - 0.059ms returns 0x00
T351C 001:302.362 JLINK_WriteReg(R3, 0x00000000)
T351C 001:302.402 - 0.059ms returns 0x00
T351C 001:302.446 JLINK_WriteReg(R4, 0x00000000)
T351C 001:302.490 - 0.063ms returns 0x00
T351C 001:302.534 JLINK_WriteReg(R5, 0x00000000)
T351C 001:302.575 - 0.059ms returns 0x00
T351C 001:302.618 JLINK_WriteReg(R6, 0x00000000)
T351C 001:302.659 - 0.059ms returns 0x00
T351C 001:302.702 JLINK_WriteReg(R7, 0x00000000)
T351C 001:302.743 - 0.059ms returns 0x00
T351C 001:302.786 JLINK_WriteReg(R8, 0x00000000)
T351C 001:302.827 - 0.059ms returns 0x00
T351C 001:302.871 JLINK_WriteReg(R9, 0x20000474)
T351C 001:302.911 - 0.059ms returns 0x00
T351C 001:302.955 JLINK_WriteReg(R10, 0x00000000)
T351C 001:302.998 - 0.063ms returns 0x00
T351C 001:303.042 JLINK_WriteReg(R11, 0x00000000)
T351C 001:303.082 - 0.059ms returns 0x00
T351C 001:303.126 JLINK_WriteReg(R12, 0x00000000)
T351C 001:303.167 - 0.060ms returns 0x00
T351C 001:303.210 JLINK_WriteReg(R13 (SP), 0x20002000)
T351C 001:303.252 - 0.061ms returns 0x00
T351C 001:303.296 JLINK_WriteReg(R14, 0x20000001)
T351C 001:303.337 - 0.059ms returns 0x00
T351C 001:303.380 JLINK_WriteReg(R15 (PC), 0x20000188)
T351C 001:303.421 - 0.059ms returns 0x00
T351C 001:303.464 JLINK_WriteReg(XPSR, 0x01000000)
T351C 001:303.505 - 0.060ms returns 0x00
T351C 001:303.549 JLINK_WriteReg(MSP, 0x20002000)
T351C 001:303.590 - 0.059ms returns 0x00
T351C 001:303.633 JLINK_WriteReg(PSP, 0x20002000)
T351C 001:303.674 - 0.059ms returns 0x00
T351C 001:303.717 JLINK_WriteReg(CFBP, 0x00000000)
T351C 001:303.758 - 0.059ms returns 0x00
T351C 001:303.803   JLINK_SetBPEx(Addr = 0x20000000, Type = 0xFFFFFFF2)
T351C 001:303.861 - 0.078ms returns 0x00000002
T351C 001:303.905 JLINK_Go()
T351C 001:303.970    -- CPU_ReadMem(4 bytes @ 0xE0001000)
T351C 001:304.658    -- CPU_WriteMem(4 bytes @ 0xE0001000)
T351C 001:310.866 - 7.011ms
T351C 001:310.948 JLINK_IsHalted()
T351C 001:317.013    -- CPU_ReadMem(2 bytes @ 0x20000000)
T351C 001:317.671 - 6.780ms returns TRUE
T351C 001:317.763 JLINK_ReadReg(R15 (PC))
T351C 001:317.813 - 0.069ms returns 0x20000000
T351C 001:317.857 JLINK_ClrBPEx(BPHandle = 0x00000002)
T351C 001:317.897 - 0.058ms returns 0x00
T351C 001:317.941 JLINK_ReadReg(R0)
T351C 001:317.984 - 0.063ms returns 0x00000001
T351C 001:318.038 JLINK_WriteReg(R0, 0x00000000)
T351C 001:318.078 - 0.059ms returns 0x00
T351C 001:318.121 JLINK_WriteReg(R1, 0x00000400)
T351C 001:318.161 - 0.059ms returns 0x00
T351C 001:318.205 JLINK_WriteReg(R2, 0x000000FF)
T351C 001:318.244 - 0.058ms returns 0x00
T351C 001:318.287 JLINK_WriteReg(R3, 0x00000000)
T351C 001:318.327 - 0.058ms returns 0x00
T351C 001:318.370 JLINK_WriteReg(R4, 0x00000000)
T351C 001:318.410 - 0.058ms returns 0x00
T351C 001:318.453 JLINK_WriteReg(R5, 0x00000000)
T351C 001:318.493 - 0.059ms returns 0x00
T351C 001:318.536 JLINK_WriteReg(R6, 0x00000000)
T351C 001:318.576 - 0.058ms returns 0x00
T351C 001:318.619 JLINK_WriteReg(R7, 0x00000000)
T351C 001:318.659 - 0.058ms returns 0x00
T351C 001:318.702 JLINK_WriteReg(R8, 0x00000000)
T351C 001:318.742 - 0.059ms returns 0x00
T351C 001:318.785 JLINK_WriteReg(R9, 0x20000474)
T351C 001:318.825 - 0.058ms returns 0x00
T351C 001:318.868 JLINK_WriteReg(R10, 0x00000000)
T351C 001:318.908 - 0.059ms returns 0x00
T351C 001:318.951 JLINK_WriteReg(R11, 0x00000000)
T351C 001:318.995 - 0.062ms returns 0x00
T351C 001:319.038 JLINK_WriteReg(R12, 0x00000000)
T351C 001:319.078 - 0.058ms returns 0x00
T351C 001:319.121 JLINK_WriteReg(R13 (SP), 0x20002000)
T351C 001:319.162 - 0.060ms returns 0x00
T351C 001:319.205 JLINK_WriteReg(R14, 0x20000001)
T351C 001:319.245 - 0.059ms returns 0x00
T351C 001:319.288 JLINK_WriteReg(R15 (PC), 0x20000104)
T351C 001:319.328 - 0.058ms returns 0x00
T351C 001:319.371 JLINK_WriteReg(XPSR, 0x01000000)
T351C 001:319.411 - 0.059ms returns 0x00
T351C 001:319.454 JLINK_WriteReg(MSP, 0x20002000)
T351C 001:319.494 - 0.058ms returns 0x00
T351C 001:319.537 JLINK_WriteReg(PSP, 0x20002000)
T351C 001:319.577 - 0.058ms returns 0x00
T351C 001:319.619 JLINK_WriteReg(CFBP, 0x00000000)
T351C 001:319.659 - 0.058ms returns 0x00
T351C 001:319.704   JLINK_SetBPEx(Addr = 0x20000000, Type = 0xFFFFFFF2)
T351C 001:319.764 - 0.080ms returns 0x00000003
T351C 001:319.807 JLINK_Go()
T351C 001:319.866    -- CPU_ReadMem(4 bytes @ 0xE0001000)
T351C 001:320.533    -- CPU_WriteMem(4 bytes @ 0xE0001000)
T351C 001:327.029 - 7.274ms
T351C 001:327.120 JLINK_IsHalted()
T351C 001:327.791 - 0.692ms returns FALSE
T351C 001:447.986 JLINK_IsHalted()
T351C 001:454.130    -- CPU_ReadMem(2 bytes @ 0x20000000)
T351C 001:454.771 - 6.807ms returns TRUE
T351C 001:454.824 JLINK_ReadReg(R15 (PC))
T351C 001:454.868 - 0.063ms returns 0x20000000
T351C 001:454.912 JLINK_ClrBPEx(BPHandle = 0x00000003)
T351C 001:454.951 - 0.062ms returns 0x00
T351C 001:454.999 JLINK_ReadReg(R0)
T351C 001:455.039 - 0.058ms returns 0x00000000
T351C 001:456.765 JLINK_WriteReg(R0, 0x00000400)
T351C 001:456.847 - 0.102ms returns 0x00
T351C 001:456.891 JLINK_WriteReg(R1, 0x00000400)
T351C 001:456.931 - 0.059ms returns 0x00
T351C 001:456.978 JLINK_WriteReg(R2, 0x000000FF)
T351C 001:457.019 - 0.060ms returns 0x00
T351C 001:457.070 JLINK_WriteReg(R3, 0x00000000)
T351C 001:457.110 - 0.059ms returns 0x00
T351C 001:457.158 JLINK_WriteReg(R4, 0x00000000)
T351C 001:457.198 - 0.059ms returns 0x00
T351C 001:457.246 JLINK_WriteReg(R5, 0x00000000)
T351C 001:457.286 - 0.059ms returns 0x00
T351C 001:457.334 JLINK_WriteReg(R6, 0x00000000)
T351C 001:457.374 - 0.059ms returns 0x00
T351C 001:457.423 JLINK_WriteReg(R7, 0x00000000)
T351C 001:457.463 - 0.058ms returns 0x00
T351C 001:457.510 JLINK_WriteReg(R8, 0x00000000)
T351C 001:457.551 - 0.059ms returns 0x00
T351C 001:457.598 JLINK_WriteReg(R9, 0x20000474)
T351C 001:457.638 - 0.058ms returns 0x00
T351C 001:457.686 JLINK_WriteReg(R10, 0x00000000)
T351C 001:457.726 - 0.059ms returns 0x00
T351C 001:457.774 JLINK_WriteReg(R11, 0x00000000)
T351C 001:457.815 - 0.059ms returns 0x00
T351C 001:457.862 JLINK_WriteReg(R12, 0x00000000)
T351C 001:457.902 - 0.059ms returns 0x00
T351C 001:457.950 JLINK_WriteReg(R13 (SP), 0x20002000)
T351C 001:457.996 - 0.065ms returns 0x00
T351C 001:458.045 JLINK_WriteReg(R14, 0x20000001)
T351C 001:458.085 - 0.059ms returns 0x00
T351C 001:458.133 JLINK_WriteReg(R15 (PC), 0x20000188)
T351C 001:458.174 - 0.059ms returns 0x00
T351C 001:458.222 JLINK_WriteReg(XPSR, 0x01000000)
T351C 001:458.262 - 0.059ms returns 0x00
T351C 001:458.310 JLINK_WriteReg(MSP, 0x20002000)
T351C 001:458.350 - 0.059ms returns 0x00
T351C 001:458.398 JLINK_WriteReg(PSP, 0x20002000)
T351C 001:458.438 - 0.059ms returns 0x00
T351C 001:458.486 JLINK_WriteReg(CFBP, 0x00000000)
T351C 001:458.527 - 0.059ms returns 0x00
T351C 001:458.576   JLINK_SetBPEx(Addr = 0x20000000, Type = 0xFFFFFFF2)
T351C 001:458.632 - 0.076ms returns 0x00000004
T351C 001:458.681 JLINK_Go()
T351C 001:458.742    -- CPU_ReadMem(4 bytes @ 0xE0001000)
T351C 001:459.399    -- CPU_WriteMem(4 bytes @ 0xE0001000)
T351C 001:465.588 - 6.956ms
T351C 001:465.677 JLINK_IsHalted()
T351C 001:471.785    -- CPU_ReadMem(2 bytes @ 0x20000000)
T351C 001:472.448 - 6.819ms returns TRUE
T351C 001:472.535 JLINK_ReadReg(R15 (PC))
T351C 001:472.584 - 0.068ms returns 0x20000000
T351C 001:472.632 JLINK_ClrBPEx(BPHandle = 0x00000004)
T351C 001:472.673 - 0.058ms returns 0x00
T351C 001:472.721 JLINK_ReadReg(R0)
T351C 001:472.760 - 0.059ms returns 0x00000001
T351C 001:472.903 JLINK_WriteReg(R0, 0x00000400)
T351C 001:472.945 - 0.064ms returns 0x00
T351C 001:472.992 JLINK_WriteReg(R1, 0x00000400)
T351C 001:473.032 - 0.058ms returns 0x00
T351C 001:473.075 JLINK_WriteReg(R2, 0x000000FF)
T351C 001:473.115 - 0.059ms returns 0x00
T351C 001:473.158 JLINK_WriteReg(R3, 0x00000000)
T351C 001:473.198 - 0.059ms returns 0x00
T351C 001:473.241 JLINK_WriteReg(R4, 0x00000000)
T351C 001:473.281 - 0.059ms returns 0x00
T351C 001:473.324 JLINK_WriteReg(R5, 0x00000000)
T351C 001:473.364 - 0.058ms returns 0x00
T351C 001:473.407 JLINK_WriteReg(R6, 0x00000000)
T351C 001:473.447 - 0.058ms returns 0x00
T351C 001:473.490 JLINK_WriteReg(R7, 0x00000000)
T351C 001:473.530 - 0.058ms returns 0x00
T351C 001:473.573 JLINK_WriteReg(R8, 0x00000000)
T351C 001:473.613 - 0.063ms returns 0x00
T351C 001:473.661 JLINK_WriteReg(R9, 0x20000474)
T351C 001:473.701 - 0.059ms returns 0x00
T351C 001:473.745 JLINK_WriteReg(R10, 0x00000000)
T351C 001:473.784 - 0.058ms returns 0x00
T351C 001:473.828 JLINK_WriteReg(R11, 0x00000000)
T351C 001:473.867 - 0.058ms returns 0x00
T351C 001:473.911 JLINK_WriteReg(R12, 0x00000000)
T351C 001:473.950 - 0.062ms returns 0x00
T351C 001:473.997 JLINK_WriteReg(R13 (SP), 0x20002000)
T351C 001:474.038 - 0.060ms returns 0x00
T351C 001:474.081 JLINK_WriteReg(R14, 0x20000001)
T351C 001:474.121 - 0.058ms returns 0x00
T351C 001:474.164 JLINK_WriteReg(R15 (PC), 0x20000104)
T351C 001:474.204 - 0.059ms returns 0x00
T351C 001:474.247 JLINK_WriteReg(XPSR, 0x01000000)
T351C 001:474.287 - 0.059ms returns 0x00
T351C 001:474.330 JLINK_WriteReg(MSP, 0x20002000)
T351C 001:474.370 - 0.058ms returns 0x00
T351C 001:474.413 JLINK_WriteReg(PSP, 0x20002000)
T351C 001:474.453 - 0.059ms returns 0x00
T351C 001:474.496 JLINK_WriteReg(CFBP, 0x00000000)
T351C 001:474.536 - 0.058ms returns 0x00
T351C 001:474.581   JLINK_SetBPEx(Addr = 0x20000000, Type = 0xFFFFFFF2)
T351C 001:474.637 - 0.076ms returns 0x00000005
T351C 001:474.680 JLINK_Go()
T351C 001:474.738    -- CPU_ReadMem(4 bytes @ 0xE0001000)
T351C 001:475.404    -- CPU_WriteMem(4 bytes @ 0xE0001000)
T351C 001:481.495 - 6.858ms
T351C 001:481.572 JLINK_IsHalted()
T351C 001:482.204 - 0.674ms returns FALSE
T351C 001:486.991 JLINK_IsHalted()
T351C 001:487.738 - 0.779ms returns FALSE
T351C 001:488.970 JLINK_IsHalted()
T351C 001:489.620 - 0.670ms returns FALSE
T351C 001:490.968 JLINK_IsHalted()
T351C 001:491.583 - 0.635ms returns FALSE
T351C 001:492.967 JLINK_IsHalted()
T351C 001:493.580 - 0.633ms returns FALSE
T351C 001:494.997 JLINK_IsHalted()
T351C 001:495.732 - 0.774ms returns FALSE
T351C 001:517.979 JLINK_IsHalted()
T351C 001:524.076    -- CPU_ReadMem(2 bytes @ 0x20000000)
T351C 001:524.839 - 6.924ms returns TRUE
T351C 001:524.947 JLINK_ReadReg(R15 (PC))
T351C 001:525.004 - 0.077ms returns 0x20000000
T351C 001:525.053 JLINK_ClrBPEx(BPHandle = 0x00000005)
T351C 001:525.095 - 0.059ms returns 0x00
T351C 001:525.143 JLINK_ReadReg(R0)
T351C 001:525.183 - 0.059ms returns 0x00000000
T351C 001:526.759 JLINK_WriteReg(R0, 0x00000800)
T351C 001:526.827 - 0.088ms returns 0x00
T351C 001:526.871 JLINK_WriteReg(R1, 0x00000400)
T351C 001:526.911 - 0.059ms returns 0x00
T351C 001:526.960 JLINK_WriteReg(R2, 0x000000FF)
T351C 001:527.001 - 0.060ms returns 0x00
T351C 001:527.044 JLINK_WriteReg(R3, 0x00000000)
T351C 001:527.084 - 0.059ms returns 0x00
T351C 001:527.127 JLINK_WriteReg(R4, 0x00000000)
T351C 001:527.168 - 0.059ms returns 0x00
T351C 001:527.211 JLINK_WriteReg(R5, 0x00000000)
T351C 001:527.251 - 0.059ms returns 0x00
T351C 001:527.294 JLINK_WriteReg(R6, 0x00000000)
T351C 001:527.334 - 0.059ms returns 0x00
T351C 001:527.378 JLINK_WriteReg(R7, 0x00000000)
T351C 001:527.418 - 0.059ms returns 0x00
T351C 001:527.461 JLINK_WriteReg(R8, 0x00000000)
T351C 001:527.501 - 0.059ms returns 0x00
T351C 001:527.544 JLINK_WriteReg(R9, 0x20000474)
T351C 001:527.585 - 0.059ms returns 0x00
T351C 001:527.628 JLINK_WriteReg(R10, 0x00000000)
T351C 001:527.668 - 0.058ms returns 0x00
T351C 001:527.711 JLINK_WriteReg(R11, 0x00000000)
T351C 001:527.751 - 0.059ms returns 0x00
T351C 001:527.794 JLINK_WriteReg(R12, 0x00000000)
T351C 001:527.834 - 0.059ms returns 0x00
T351C 001:527.877 JLINK_WriteReg(R13 (SP), 0x20002000)
T351C 001:527.918 - 0.060ms returns 0x00
T351C 001:527.964 JLINK_WriteReg(R14, 0x20000001)
T351C 001:528.005 - 0.059ms returns 0x00
T351C 001:528.048 JLINK_WriteReg(R15 (PC), 0x20000188)
T351C 001:528.088 - 0.059ms returns 0x00
T351C 001:528.131 JLINK_WriteReg(XPSR, 0x01000000)
T351C 001:528.172 - 0.059ms returns 0x00
T351C 001:528.215 JLINK_WriteReg(MSP, 0x20002000)
T351C 001:528.255 - 0.059ms returns 0x00
T351C 001:528.298 JLINK_WriteReg(PSP, 0x20002000)
T351C 001:528.338 - 0.059ms returns 0x00
T351C 001:528.381 JLINK_WriteReg(CFBP, 0x00000000)
T351C 001:528.421 - 0.059ms returns 0x00
T351C 001:528.470   JLINK_SetBPEx(Addr = 0x20000000, Type = 0xFFFFFFF2)
T351C 001:528.527 - 0.077ms returns 0x00000006
T351C 001:528.570 JLINK_Go()
T351C 001:528.631    -- CPU_ReadMem(4 bytes @ 0xE0001000)
T351C 001:529.329    -- CPU_WriteMem(4 bytes @ 0xE0001000)
T351C 001:535.521 - 6.992ms
T351C 001:535.594 JLINK_IsHalted()
T351C 001:541.714    -- CPU_ReadMem(2 bytes @ 0x20000000)
T351C 001:542.394 - 6.854ms returns TRUE
T351C 001:542.482 JLINK_ReadReg(R15 (PC))
T351C 001:542.529 - 0.067ms returns 0x20000000
T351C 001:542.573 JLINK_ClrBPEx(BPHandle = 0x00000006)
T351C 001:542.612 - 0.058ms returns 0x00
T351C 001:542.656 JLINK_ReadReg(R0)
T351C 001:542.696 - 0.058ms returns 0x00000001
T351C 001:542.749 JLINK_WriteReg(R0, 0x00000800)
T351C 001:542.792 - 0.061ms returns 0x00
T351C 001:542.836 JLINK_WriteReg(R1, 0x00000400)
T351C 001:542.876 - 0.059ms returns 0x00
T351C 001:542.920 JLINK_WriteReg(R2, 0x000000FF)
T351C 001:542.965 - 0.065ms returns 0x00
T351C 001:543.010 JLINK_WriteReg(R3, 0x00000000)
T351C 001:543.051 - 0.060ms returns 0x00
T351C 001:543.094 JLINK_WriteReg(R4, 0x00000000)
T351C 001:543.136 - 0.060ms returns 0x00
T351C 001:543.180 JLINK_WriteReg(R5, 0x00000000)
T351C 001:543.221 - 0.060ms returns 0x00
T351C 001:543.265 JLINK_WriteReg(R6, 0x00000000)
T351C 001:543.307 - 0.061ms returns 0x00
T351C 001:543.352 JLINK_WriteReg(R7, 0x00000000)
T351C 001:543.393 - 0.060ms returns 0x00
T351C 001:543.436 JLINK_WriteReg(R8, 0x00000000)
T351C 001:543.478 - 0.061ms returns 0x00
T351C 001:543.522 JLINK_WriteReg(R9, 0x20000474)
T351C 001:543.562 - 0.059ms returns 0x00
T351C 001:543.605 JLINK_WriteReg(R10, 0x00000000)
T351C 001:543.645 - 0.058ms returns 0x00
T351C 001:543.688 JLINK_WriteReg(R11, 0x00000000)
T351C 001:543.728 - 0.059ms returns 0x00
T351C 001:543.772 JLINK_WriteReg(R12, 0x00000000)
T351C 001:543.812 - 0.059ms returns 0x00
T351C 001:543.855 JLINK_WriteReg(R13 (SP), 0x20002000)
T351C 001:543.896 - 0.060ms returns 0x00
T351C 001:543.939 JLINK_WriteReg(R14, 0x20000001)
T351C 001:543.984 - 0.063ms returns 0x00
T351C 001:544.027 JLINK_WriteReg(R15 (PC), 0x20000104)
T351C 001:544.067 - 0.059ms returns 0x00
T351C 001:544.111 JLINK_WriteReg(XPSR, 0x01000000)
T351C 001:544.152 - 0.059ms returns 0x00
T351C 001:544.196 JLINK_WriteReg(MSP, 0x20002000)
T351C 001:544.236 - 0.059ms returns 0x00
T351C 001:544.280 JLINK_WriteReg(PSP, 0x20002000)
T351C 001:544.322 - 0.061ms returns 0x00
T351C 001:544.366 JLINK_WriteReg(CFBP, 0x00000000)
T351C 001:544.407 - 0.059ms returns 0x00
T351C 001:544.453   JLINK_SetBPEx(Addr = 0x20000000, Type = 0xFFFFFFF2)
T351C 001:544.512 - 0.080ms returns 0x00000007
T351C 001:544.557 JLINK_Go()
T351C 001:544.624    -- CPU_ReadMem(4 bytes @ 0xE0001000)
T351C 001:545.332    -- CPU_WriteMem(4 bytes @ 0xE0001000)
T351C 001:551.460 - 6.958ms
T351C 001:551.554 JLINK_IsHalted()
T351C 001:552.216 - 0.707ms returns FALSE
T351C 001:553.965 JLINK_IsHalted()
T351C 001:554.640 - 0.695ms returns FALSE
T351C 001:555.962 JLINK_IsHalted()
T351C 001:556.579 - 0.636ms returns FALSE
T351C 001:557.974 JLINK_IsHalted()
T351C 001:558.627 - 0.675ms returns FALSE
T351C 001:559.959 JLINK_IsHalted()
T351C 001:560.599 - 0.662ms returns FALSE
T351C 001:561.962 JLINK_IsHalted()
T351C 001:562.581 - 0.641ms returns FALSE
T351C 001:564.170 JLINK_IsHalted()
T351C 001:564.911 - 0.804ms returns FALSE
T351C 001:566.979 JLINK_IsHalted()
T351C 001:567.688 - 0.730ms returns FALSE
T351C 001:568.998 JLINK_IsHalted()
T351C 001:569.738 - 0.768ms returns FALSE
T351C 001:576.976 JLINK_IsHalted()
T351C 001:583.124    -- CPU_ReadMem(2 bytes @ 0x20000000)
T351C 001:583.797 - 6.881ms returns TRUE
T351C 001:583.899 JLINK_ReadReg(R15 (PC))
T351C 001:583.954 - 0.075ms returns 0x20000000
T351C 001:584.005 JLINK_ClrBPEx(BPHandle = 0x00000007)
T351C 001:584.047 - 0.060ms returns 0x00
T351C 001:584.098 JLINK_ReadReg(R0)
T351C 001:584.139 - 0.060ms returns 0x00000000
T351C 001:586.047 JLINK_WriteReg(R0, 0x00000C00)
T351C 001:586.131 - 0.105ms returns 0x00
T351C 001:586.176 JLINK_WriteReg(R1, 0x00000400)
T351C 001:586.220 - 0.062ms returns 0x00
T351C 001:586.263 JLINK_WriteReg(R2, 0x000000FF)
T351C 001:586.304 - 0.060ms returns 0x00
T351C 001:586.348 JLINK_WriteReg(R3, 0x00000000)
T351C 001:586.389 - 0.060ms returns 0x00
T351C 001:586.433 JLINK_WriteReg(R4, 0x00000000)
T351C 001:586.473 - 0.059ms returns 0x00
T351C 001:586.517 JLINK_WriteReg(R5, 0x00000000)
T351C 001:586.557 - 0.059ms returns 0x00
T351C 001:586.601 JLINK_WriteReg(R6, 0x00000000)
T351C 001:586.641 - 0.059ms returns 0x00
T351C 001:586.685 JLINK_WriteReg(R7, 0x00000000)
T351C 001:586.726 - 0.060ms returns 0x00
T351C 001:586.770 JLINK_WriteReg(R8, 0x00000000)
T351C 001:586.810 - 0.059ms returns 0x00
T351C 001:586.854 JLINK_WriteReg(R9, 0x20000474)
T351C 001:586.895 - 0.059ms returns 0x00
T351C 001:586.939 JLINK_WriteReg(R10, 0x00000000)
T351C 001:586.996 - 0.077ms returns 0x00
T351C 001:587.040 JLINK_WriteReg(R11, 0x00000000)
T351C 001:587.081 - 0.060ms returns 0x00
T351C 001:587.125 JLINK_WriteReg(R12, 0x00000000)
T351C 001:587.165 - 0.060ms returns 0x00
T351C 001:587.209 JLINK_WriteReg(R13 (SP), 0x20002000)
T351C 001:587.251 - 0.061ms returns 0x00
T351C 001:587.295 JLINK_WriteReg(R14, 0x20000001)
T351C 001:587.336 - 0.060ms returns 0x00
T351C 001:587.380 JLINK_WriteReg(R15 (PC), 0x20000188)
T351C 001:587.421 - 0.060ms returns 0x00
T351C 001:587.465 JLINK_WriteReg(XPSR, 0x01000000)
T351C 001:587.506 - 0.060ms returns 0x00
T351C 001:587.550 JLINK_WriteReg(MSP, 0x20002000)
T351C 001:587.591 - 0.060ms returns 0x00
T351C 001:587.634 JLINK_WriteReg(PSP, 0x20002000)
T351C 001:587.675 - 0.060ms returns 0x00
T351C 001:587.719 JLINK_WriteReg(CFBP, 0x00000000)
T351C 001:587.759 - 0.059ms returns 0x00
T351C 001:587.805   JLINK_SetBPEx(Addr = 0x20000000, Type = 0xFFFFFFF2)
T351C 001:587.862 - 0.078ms returns 0x00000008
T351C 001:587.906 JLINK_Go()
T351C 001:587.973    -- CPU_ReadMem(4 bytes @ 0xE0001000)
T351C 001:588.633    -- CPU_WriteMem(4 bytes @ 0xE0001000)
T351C 001:594.891 - 7.049ms
T351C 001:594.991 JLINK_IsHalted()
T351C 001:601.216    -- CPU_ReadMem(2 bytes @ 0x20000000)
T351C 001:601.864 - 6.894ms returns TRUE
T351C 001:601.916 JLINK_ReadReg(R15 (PC))
T351C 001:601.966 - 0.069ms returns 0x20000000
T351C 001:602.011 JLINK_ClrBPEx(BPHandle = 0x00000008)
T351C 001:602.052 - 0.060ms returns 0x00
T351C 001:602.097 JLINK_ReadReg(R0)
T351C 001:602.137 - 0.059ms returns 0x00000001
T351C 001:602.190 JLINK_WriteReg(R0, 0x00000C00)
T351C 001:602.231 - 0.060ms returns 0x00
T351C 001:602.275 JLINK_WriteReg(R1, 0x00000400)
T351C 001:602.315 - 0.059ms returns 0x00
T351C 001:602.359 JLINK_WriteReg(R2, 0x000000FF)
T351C 001:602.399 - 0.059ms returns 0x00
T351C 001:602.443 JLINK_WriteReg(R3, 0x00000000)
T351C 001:602.483 - 0.059ms returns 0x00
T351C 001:602.527 JLINK_WriteReg(R4, 0x00000000)
T351C 001:602.567 - 0.059ms returns 0x00
T351C 001:602.611 JLINK_WriteReg(R5, 0x00000000)
T351C 001:602.652 - 0.060ms returns 0x00
T351C 001:602.696 JLINK_WriteReg(R6, 0x00000000)
T351C 001:602.737 - 0.060ms returns 0x00
T351C 001:602.781 JLINK_WriteReg(R7, 0x00000000)
T351C 001:602.822 - 0.060ms returns 0x00
T351C 001:602.866 JLINK_WriteReg(R8, 0x00000000)
T351C 001:602.906 - 0.060ms returns 0x00
T351C 001:602.952 JLINK_WriteReg(R9, 0x20000474)
T351C 001:602.994 - 0.061ms returns 0x00
T351C 001:603.038 JLINK_WriteReg(R10, 0x00000000)
T351C 001:603.079 - 0.059ms returns 0x00
T351C 001:603.123 JLINK_WriteReg(R11, 0x00000000)
T351C 001:603.163 - 0.059ms returns 0x00
T351C 001:603.207 JLINK_WriteReg(R12, 0x00000000)
T351C 001:603.247 - 0.059ms returns 0x00
T351C 001:603.291 JLINK_WriteReg(R13 (SP), 0x20002000)
T351C 001:603.332 - 0.060ms returns 0x00
T351C 001:603.375 JLINK_WriteReg(R14, 0x20000001)
T351C 001:603.416 - 0.060ms returns 0x00
T351C 001:603.460 JLINK_WriteReg(R15 (PC), 0x20000104)
T351C 001:603.500 - 0.059ms returns 0x00
T351C 001:603.544 JLINK_WriteReg(XPSR, 0x01000000)
T351C 001:603.584 - 0.059ms returns 0x00
T351C 001:603.628 JLINK_WriteReg(MSP, 0x20002000)
T351C 001:603.673 - 0.064ms returns 0x00
T351C 001:603.717 JLINK_WriteReg(PSP, 0x20002000)
T351C 001:603.757 - 0.059ms returns 0x00
T351C 001:603.801 JLINK_WriteReg(CFBP, 0x00000000)
T351C 001:603.841 - 0.059ms returns 0x00
T351C 001:603.887   JLINK_SetBPEx(Addr = 0x20000000, Type = 0xFFFFFFF2)
T351C 001:603.944 - 0.081ms returns 0x00000009
T351C 001:603.992 JLINK_Go()
T351C 001:604.115    -- CPU_ReadMem(4 bytes @ 0xE0001000)
T351C 001:604.928    -- CPU_WriteMem(4 bytes @ 0xE0001000)
T351C 001:611.279 - 7.352ms
T351C 001:611.386 JLINK_IsHalted()
T351C 001:612.087 - 0.745ms returns FALSE
T351C 001:635.967 JLINK_IsHalted()
T351C 001:642.050    -- CPU_ReadMem(2 bytes @ 0x20000000)
T351C 001:642.634 - 6.688ms returns TRUE
T351C 001:642.691 JLINK_ReadReg(R15 (PC))
T351C 001:642.734 - 0.062ms returns 0x20000000
T351C 001:642.782 JLINK_ClrBPEx(BPHandle = 0x00000009)
T351C 001:642.822 - 0.058ms returns 0x00
T351C 001:642.871 JLINK_ReadReg(R0)
T351C 001:642.911 - 0.058ms returns 0x00000000
T351C 001:644.724 JLINK_WriteReg(R0, 0x00001000)
T351C 001:644.818 - 0.115ms returns 0x00
T351C 001:644.863 JLINK_WriteReg(R1, 0x00000400)
T351C 001:644.924 - 0.080ms returns 0x00
T351C 001:644.975 JLINK_WriteReg(R2, 0x000000FF)
T351C 001:645.016 - 0.059ms returns 0x00
T351C 001:645.059 JLINK_WriteReg(R3, 0x00000000)
T351C 001:645.099 - 0.059ms returns 0x00
T351C 001:645.142 JLINK_WriteReg(R4, 0x00000000)
T351C 001:645.182 - 0.058ms returns 0x00
T351C 001:645.225 JLINK_WriteReg(R5, 0x00000000)
T351C 001:645.265 - 0.058ms returns 0x00
T351C 001:645.308 JLINK_WriteReg(R6, 0x00000000)
T351C 001:645.348 - 0.058ms returns 0x00
T351C 001:645.391 JLINK_WriteReg(R7, 0x00000000)
T351C 001:645.431 - 0.059ms returns 0x00
T351C 001:645.474 JLINK_WriteReg(R8, 0x00000000)
T351C 001:645.514 - 0.058ms returns 0x00
T351C 001:645.556 JLINK_WriteReg(R9, 0x20000474)
T351C 001:645.596 - 0.058ms returns 0x00
T351C 001:645.639 JLINK_WriteReg(R10, 0x00000000)
T351C 001:645.679 - 0.058ms returns 0x00
T351C 001:645.721 JLINK_WriteReg(R11, 0x00000000)
T351C 001:645.761 - 0.058ms returns 0x00
T351C 001:645.804 JLINK_WriteReg(R12, 0x00000000)
T351C 001:645.844 - 0.058ms returns 0x00
T351C 001:645.886 JLINK_WriteReg(R13 (SP), 0x20002000)
T351C 001:645.927 - 0.062ms returns 0x00
T351C 001:645.973 JLINK_WriteReg(R14, 0x20000001)
T351C 001:646.012 - 0.058ms returns 0x00
T351C 001:646.055 JLINK_WriteReg(R15 (PC), 0x20000188)
T351C 001:646.095 - 0.058ms returns 0x00
T351C 001:646.138 JLINK_WriteReg(XPSR, 0x01000000)
T351C 001:646.178 - 0.058ms returns 0x00
T351C 001:646.221 JLINK_WriteReg(MSP, 0x20002000)
T351C 001:646.261 - 0.058ms returns 0x00
T351C 001:646.303 JLINK_WriteReg(PSP, 0x20002000)
T351C 001:646.343 - 0.058ms returns 0x00
T351C 001:646.386 JLINK_WriteReg(CFBP, 0x00000000)
T351C 001:646.426 - 0.058ms returns 0x00
T351C 001:646.471   JLINK_SetBPEx(Addr = 0x20000000, Type = 0xFFFFFFF2)
T351C 001:646.527 - 0.076ms returns 0x0000000A
T351C 001:646.569 JLINK_Go()
T351C 001:646.630    -- CPU_ReadMem(4 bytes @ 0xE0001000)
T351C 001:647.263    -- CPU_WriteMem(4 bytes @ 0xE0001000)
T351C 001:653.381 - 6.863ms
T351C 001:653.464 JLINK_IsHalted()
T351C 001:659.429    -- CPU_ReadMem(2 bytes @ 0x20000000)
T351C 001:660.031 - 6.589ms returns TRUE
T351C 001:660.083 JLINK_ReadReg(R15 (PC))
T351C 001:660.127 - 0.062ms returns 0x20000000
T351C 001:660.170 JLINK_ClrBPEx(BPHandle = 0x0000000A)
T351C 001:660.210 - 0.058ms returns 0x00
T351C 001:660.254 JLINK_ReadReg(R0)
T351C 001:660.293 - 0.058ms returns 0x00000001
T351C 001:660.345 JLINK_WriteReg(R0, 0x00001000)
T351C 001:660.386 - 0.059ms returns 0x00
T351C 001:660.429 JLINK_WriteReg(R1, 0x00000400)
T351C 001:660.469 - 0.058ms returns 0x00
T351C 001:660.512 JLINK_WriteReg(R2, 0x000000FF)
T351C 001:660.552 - 0.058ms returns 0x00
T351C 001:660.595 JLINK_WriteReg(R3, 0x00000000)
T351C 001:660.635 - 0.058ms returns 0x00
T351C 001:660.678 JLINK_WriteReg(R4, 0x00000000)
T351C 001:660.718 - 0.059ms returns 0x00
T351C 001:660.761 JLINK_WriteReg(R5, 0x00000000)
T351C 001:660.805 - 0.063ms returns 0x00
T351C 001:660.848 JLINK_WriteReg(R6, 0x00000000)
T351C 001:660.888 - 0.059ms returns 0x00
T351C 001:660.931 JLINK_WriteReg(R7, 0x00000000)
T351C 001:660.986 - 0.074ms returns 0x00
T351C 001:661.030 JLINK_WriteReg(R8, 0x00000000)
T351C 001:661.070 - 0.059ms returns 0x00
T351C 001:661.113 JLINK_WriteReg(R9, 0x20000474)
T351C 001:661.153 - 0.059ms returns 0x00
T351C 001:661.197 JLINK_WriteReg(R10, 0x00000000)
T351C 001:661.236 - 0.059ms returns 0x00
T351C 001:661.280 JLINK_WriteReg(R11, 0x00000000)
T351C 001:661.320 - 0.058ms returns 0x00
T351C 001:661.363 JLINK_WriteReg(R12, 0x00000000)
T351C 001:661.403 - 0.059ms returns 0x00
T351C 001:661.446 JLINK_WriteReg(R13 (SP), 0x20002000)
T351C 001:661.486 - 0.059ms returns 0x00
T351C 001:661.529 JLINK_WriteReg(R14, 0x20000001)
T351C 001:661.569 - 0.058ms returns 0x00
T351C 001:661.613 JLINK_WriteReg(R15 (PC), 0x20000104)
T351C 001:661.652 - 0.059ms returns 0x00
T351C 001:661.696 JLINK_WriteReg(XPSR, 0x01000000)
T351C 001:661.736 - 0.059ms returns 0x00
T351C 001:661.779 JLINK_WriteReg(MSP, 0x20002000)
T351C 001:661.819 - 0.058ms returns 0x00
T351C 001:661.862 JLINK_WriteReg(PSP, 0x20002000)
T351C 001:661.902 - 0.058ms returns 0x00
T351C 001:661.948 JLINK_WriteReg(CFBP, 0x00000000)
T351C 001:661.989 - 0.059ms returns 0x00
T351C 001:662.034   JLINK_SetBPEx(Addr = 0x20000000, Type = 0xFFFFFFF2)
T351C 001:662.089 - 0.076ms returns 0x0000000B
T351C 001:662.132 JLINK_Go()
T351C 001:662.187    -- CPU_ReadMem(4 bytes @ 0xE0001000)
T351C 001:662.785    -- CPU_WriteMem(4 bytes @ 0xE0001000)
T351C 001:668.964 - 6.884ms
T351C 001:669.053 JLINK_IsHalted()
T351C 001:669.690 - 0.658ms returns FALSE
T351C 001:670.953 JLINK_IsHalted()
T351C 001:671.576 - 0.644ms returns FALSE
T351C 001:672.956 JLINK_IsHalted()
T351C 001:673.577 - 0.641ms returns FALSE
T351C 001:674.952 JLINK_IsHalted()
T351C 001:675.557 - 0.624ms returns FALSE
T351C 001:676.956 JLINK_IsHalted()
T351C 001:677.578 - 0.643ms returns FALSE
T351C 001:678.962 JLINK_IsHalted()
T351C 001:679.612 - 0.696ms returns FALSE
T351C 001:680.957 JLINK_IsHalted()
T351C 001:681.618 - 0.680ms returns FALSE
T351C 001:682.982 JLINK_IsHalted()
T351C 001:683.715 - 0.763ms returns FALSE
T351C 001:684.978 JLINK_IsHalted()
T351C 001:685.838 - 0.920ms returns FALSE
T351C 001:687.970 JLINK_IsHalted()
T351C 001:688.688 - 0.743ms returns FALSE
T351C 001:689.953 JLINK_IsHalted()
T351C 001:696.037    -- CPU_ReadMem(2 bytes @ 0x20000000)
T351C 001:696.732 - 6.809ms returns TRUE
T351C 001:696.802 JLINK_ReadReg(R15 (PC))
T351C 001:696.848 - 0.065ms returns 0x20000000
T351C 001:696.897 JLINK_ClrBPEx(BPHandle = 0x0000000B)
T351C 001:696.942 - 0.064ms returns 0x00
T351C 001:696.991 JLINK_ReadReg(R0)
T351C 001:697.031 - 0.059ms returns 0x00000000
T351C 001:698.617 JLINK_WriteReg(R0, 0x00001400)
T351C 001:698.690 - 0.092ms returns 0x00
T351C 001:698.734 JLINK_WriteReg(R1, 0x00000400)
T351C 001:698.774 - 0.058ms returns 0x00
T351C 001:698.817 JLINK_WriteReg(R2, 0x000000FF)
T351C 001:698.857 - 0.059ms returns 0x00
T351C 001:698.900 JLINK_WriteReg(R3, 0x00000000)
T351C 001:698.944 - 0.063ms returns 0x00
T351C 001:698.988 JLINK_WriteReg(R4, 0x00000000)
T351C 001:699.028 - 0.059ms returns 0x00
T351C 001:699.071 JLINK_WriteReg(R5, 0x00000000)
T351C 001:699.111 - 0.059ms returns 0x00
T351C 001:699.154 JLINK_WriteReg(R6, 0x00000000)
T351C 001:699.194 - 0.059ms returns 0x00
T351C 001:699.237 JLINK_WriteReg(R7, 0x00000000)
T351C 001:699.277 - 0.058ms returns 0x00
T351C 001:699.320 JLINK_WriteReg(R8, 0x00000000)
T351C 001:699.360 - 0.058ms returns 0x00
T351C 001:699.403 JLINK_WriteReg(R9, 0x20000474)
T351C 001:699.443 - 0.059ms returns 0x00
T351C 001:699.486 JLINK_WriteReg(R10, 0x00000000)
T351C 001:699.526 - 0.058ms returns 0x00
T351C 001:699.569 JLINK_WriteReg(R11, 0x00000000)
T351C 001:699.608 - 0.058ms returns 0x00
T351C 001:699.652 JLINK_WriteReg(R12, 0x00000000)
T351C 001:699.692 - 0.059ms returns 0x00
T351C 001:699.735 JLINK_WriteReg(R13 (SP), 0x20002000)
T351C 001:699.780 - 0.064ms returns 0x00
T351C 001:699.823 JLINK_WriteReg(R14, 0x20000001)
T351C 001:699.863 - 0.058ms returns 0x00
T351C 001:699.906 JLINK_WriteReg(R15 (PC), 0x20000188)
T351C 001:699.949 - 0.062ms returns 0x00
T351C 001:699.993 JLINK_WriteReg(XPSR, 0x01000000)
T351C 001:700.033 - 0.059ms returns 0x00
T351C 001:700.076 JLINK_WriteReg(MSP, 0x20002000)
T351C 001:700.116 - 0.058ms returns 0x00
T351C 001:700.159 JLINK_WriteReg(PSP, 0x20002000)
T351C 001:700.199 - 0.058ms returns 0x00
T351C 001:700.242 JLINK_WriteReg(CFBP, 0x00000000)
T351C 001:700.282 - 0.059ms returns 0x00
T351C 001:700.326   JLINK_SetBPEx(Addr = 0x20000000, Type = 0xFFFFFFF2)
T351C 001:700.382 - 0.076ms returns 0x0000000C
T351C 001:700.426 JLINK_Go()
T351C 001:700.487    -- CPU_ReadMem(4 bytes @ 0xE0001000)
T351C 001:701.151    -- CPU_WriteMem(4 bytes @ 0xE0001000)
T351C 001:707.339 - 6.965ms
T351C 001:707.422 JLINK_IsHalted()
T351C 001:713.456    -- CPU_ReadMem(2 bytes @ 0x20000000)
T351C 001:714.096 - 6.696ms returns TRUE
T351C 001:714.149 JLINK_ReadReg(R15 (PC))
T351C 001:714.193 - 0.062ms returns 0x20000000
T351C 001:714.236 JLINK_ClrBPEx(BPHandle = 0x0000000C)
T351C 001:714.276 - 0.058ms returns 0x00
T351C 001:714.320 JLINK_ReadReg(R0)
T351C 001:714.360 - 0.058ms returns 0x00000001
T351C 001:714.412 JLINK_WriteReg(R0, 0x00001400)
T351C 001:714.453 - 0.059ms returns 0x00
T351C 001:714.497 JLINK_WriteReg(R1, 0x00000400)
T351C 001:714.537 - 0.059ms returns 0x00
T351C 001:714.580 JLINK_WriteReg(R2, 0x000000FF)
T351C 001:714.620 - 0.058ms returns 0x00
T351C 001:714.663 JLINK_WriteReg(R3, 0x00000000)
T351C 001:714.703 - 0.058ms returns 0x00
T351C 001:714.746 JLINK_WriteReg(R4, 0x00000000)
T351C 001:714.786 - 0.058ms returns 0x00
T351C 001:714.829 JLINK_WriteReg(R5, 0x00000000)
T351C 001:714.869 - 0.059ms returns 0x00
T351C 001:714.912 JLINK_WriteReg(R6, 0x00000000)
T351C 001:714.956 - 0.064ms returns 0x00
T351C 001:715.000 JLINK_WriteReg(R7, 0x00000000)
T351C 001:715.040 - 0.058ms returns 0x00
T351C 001:715.083 JLINK_WriteReg(R8, 0x00000000)
T351C 001:715.123 - 0.059ms returns 0x00
T351C 001:715.167 JLINK_WriteReg(R9, 0x20000474)
T351C 001:715.207 - 0.059ms returns 0x00
T351C 001:715.250 JLINK_WriteReg(R10, 0x00000000)
T351C 001:715.290 - 0.058ms returns 0x00
T351C 001:715.333 JLINK_WriteReg(R11, 0x00000000)
T351C 001:715.373 - 0.058ms returns 0x00
T351C 001:715.416 JLINK_WriteReg(R12, 0x00000000)
T351C 001:715.455 - 0.058ms returns 0x00
T351C 001:715.498 JLINK_WriteReg(R13 (SP), 0x20002000)
T351C 001:715.539 - 0.059ms returns 0x00
T351C 001:715.582 JLINK_WriteReg(R14, 0x20000001)
T351C 001:715.621 - 0.058ms returns 0x00
T351C 001:715.665 JLINK_WriteReg(R15 (PC), 0x20000104)
T351C 001:715.704 - 0.058ms returns 0x00
T351C 001:715.747 JLINK_WriteReg(XPSR, 0x01000000)
T351C 001:715.787 - 0.059ms returns 0x00
T351C 001:715.831 JLINK_WriteReg(MSP, 0x20002000)
T351C 001:715.871 - 0.059ms returns 0x00
T351C 001:715.914 JLINK_WriteReg(PSP, 0x20002000)
T351C 001:715.957 - 0.063ms returns 0x00
T351C 001:716.002 JLINK_WriteReg(CFBP, 0x00000000)
T351C 001:716.042 - 0.059ms returns 0x00
T351C 001:716.086   JLINK_SetBPEx(Addr = 0x20000000, Type = 0xFFFFFFF2)
T351C 001:716.142 - 0.075ms returns 0x0000000D
T351C 001:716.185 JLINK_Go()
T351C 001:716.241    -- CPU_ReadMem(4 bytes @ 0xE0001000)
T351C 001:716.856    -- CPU_WriteMem(4 bytes @ 0xE0001000)
T351C 001:723.032 - 6.900ms
T351C 001:723.124 JLINK_IsHalted()
T351C 001:723.813 - 0.746ms returns FALSE
T351C 001:746.963 JLINK_IsHalted()
T351C 001:753.113    -- CPU_ReadMem(2 bytes @ 0x20000000)
T351C 001:753.744 - 6.802ms returns TRUE
T351C 001:753.801 JLINK_ReadReg(R15 (PC))
T351C 001:753.845 - 0.062ms returns 0x20000000
T351C 001:753.893 JLINK_ClrBPEx(BPHandle = 0x0000000D)
T351C 001:753.937 - 0.063ms returns 0x00
T351C 001:753.986 JLINK_ReadReg(R0)
T351C 001:754.025 - 0.058ms returns 0x00000000
T351C 001:755.597 JLINK_WriteReg(R0, 0x00001800)
T351C 001:755.669 - 0.093ms returns 0x00
T351C 001:755.713 JLINK_WriteReg(R1, 0x00000400)
T351C 001:755.757 - 0.063ms returns 0x00
T351C 001:755.800 JLINK_WriteReg(R2, 0x000000FF)
T351C 001:755.840 - 0.058ms returns 0x00
T351C 001:755.883 JLINK_WriteReg(R3, 0x00000000)
T351C 001:755.923 - 0.063ms returns 0x00
T351C 001:755.971 JLINK_WriteReg(R4, 0x00000000)
T351C 001:756.011 - 0.058ms returns 0x00
T351C 001:756.054 JLINK_WriteReg(R5, 0x00000000)
T351C 001:756.094 - 0.058ms returns 0x00
T351C 001:756.137 JLINK_WriteReg(R6, 0x00000000)
T351C 001:756.176 - 0.058ms returns 0x00
T351C 001:756.219 JLINK_WriteReg(R7, 0x00000000)
T351C 001:756.259 - 0.059ms returns 0x00
T351C 001:756.302 JLINK_WriteReg(R8, 0x00000000)
T351C 001:756.342 - 0.058ms returns 0x00
T351C 001:756.385 JLINK_WriteReg(R9, 0x20000474)
T351C 001:756.425 - 0.058ms returns 0x00
T351C 001:756.468 JLINK_WriteReg(R10, 0x00000000)
T351C 001:756.508 - 0.058ms returns 0x00
T351C 001:756.551 JLINK_WriteReg(R11, 0x00000000)
T351C 001:756.591 - 0.058ms returns 0x00
T351C 001:756.634 JLINK_WriteReg(R12, 0x00000000)
T351C 001:756.674 - 0.059ms returns 0x00
T351C 001:756.717 JLINK_WriteReg(R13 (SP), 0x20002000)
T351C 001:756.758 - 0.060ms returns 0x00
T351C 001:756.801 JLINK_WriteReg(R14, 0x20000001)
T351C 001:756.841 - 0.058ms returns 0x00
T351C 001:756.884 JLINK_WriteReg(R15 (PC), 0x20000188)
T351C 001:756.924 - 0.062ms returns 0x00
T351C 001:756.971 JLINK_WriteReg(XPSR, 0x01000000)
T351C 001:757.011 - 0.059ms returns 0x00
T351C 001:757.054 JLINK_WriteReg(MSP, 0x20002000)
T351C 001:757.094 - 0.058ms returns 0x00
T351C 001:757.138 JLINK_WriteReg(PSP, 0x20002000)
T351C 001:757.178 - 0.059ms returns 0x00
T351C 001:757.221 JLINK_WriteReg(CFBP, 0x00000000)
T351C 001:757.260 - 0.058ms returns 0x00
T351C 001:757.305   JLINK_SetBPEx(Addr = 0x20000000, Type = 0xFFFFFFF2)
T351C 001:757.361 - 0.076ms returns 0x0000000E
T351C 001:757.404 JLINK_Go()
T351C 001:757.465    -- CPU_ReadMem(4 bytes @ 0xE0001000)
T351C 001:758.122    -- CPU_WriteMem(4 bytes @ 0xE0001000)
T351C 001:764.249 - 6.903ms
T351C 001:764.342 JLINK_IsHalted()
T351C 001:770.560    -- CPU_ReadMem(2 bytes @ 0x20000000)
T351C 001:771.248 - 6.930ms returns TRUE
T351C 001:771.304 JLINK_ReadReg(R15 (PC))
T351C 001:771.349 - 0.064ms returns 0x20000000
T351C 001:771.392 JLINK_ClrBPEx(BPHandle = 0x0000000E)
T351C 001:771.432 - 0.058ms returns 0x00
T351C 001:771.476 JLINK_ReadReg(R0)
T351C 001:771.515 - 0.058ms returns 0x00000001
T351C 001:771.567 JLINK_WriteReg(R0, 0x00001800)
T351C 001:771.608 - 0.059ms returns 0x00
T351C 001:771.651 JLINK_WriteReg(R1, 0x00000400)
T351C 001:771.691 - 0.059ms returns 0x00
T351C 001:771.734 JLINK_WriteReg(R2, 0x000000FF)
T351C 001:771.774 - 0.058ms returns 0x00
T351C 001:771.817 JLINK_WriteReg(R3, 0x00000000)
T351C 001:771.857 - 0.059ms returns 0x00
T351C 001:771.900 JLINK_WriteReg(R4, 0x00000000)
T351C 001:771.944 - 0.063ms returns 0x00
T351C 001:771.987 JLINK_WriteReg(R5, 0x00000000)
T351C 001:772.027 - 0.059ms returns 0x00
T351C 001:772.070 JLINK_WriteReg(R6, 0x00000000)
T351C 001:772.110 - 0.058ms returns 0x00
T351C 001:772.153 JLINK_WriteReg(R7, 0x00000000)
T351C 001:772.193 - 0.058ms returns 0x00
T351C 001:772.236 JLINK_WriteReg(R8, 0x00000000)
T351C 001:772.276 - 0.058ms returns 0x00
T351C 001:772.319 JLINK_WriteReg(R9, 0x20000474)
T351C 001:772.359 - 0.058ms returns 0x00
T351C 001:772.402 JLINK_WriteReg(R10, 0x00000000)
T351C 001:772.442 - 0.058ms returns 0x00
T351C 001:772.485 JLINK_WriteReg(R11, 0x00000000)
T351C 001:772.524 - 0.058ms returns 0x00
T351C 001:772.567 JLINK_WriteReg(R12, 0x00000000)
T351C 001:772.607 - 0.058ms returns 0x00
T351C 001:772.650 JLINK_WriteReg(R13 (SP), 0x20002000)
T351C 001:772.691 - 0.059ms returns 0x00
T351C 001:772.733 JLINK_WriteReg(R14, 0x20000001)
T351C 001:772.773 - 0.059ms returns 0x00
T351C 001:772.817 JLINK_WriteReg(R15 (PC), 0x20000104)
T351C 001:772.857 - 0.059ms returns 0x00
T351C 001:772.900 JLINK_WriteReg(XPSR, 0x01000000)
T351C 001:772.943 - 0.062ms returns 0x00
T351C 001:772.987 JLINK_WriteReg(MSP, 0x20002000)
T351C 001:773.065 - 0.133ms returns 0x00
T351C 001:773.153 JLINK_WriteReg(PSP, 0x20002000)
T351C 001:773.194 - 0.060ms returns 0x00
T351C 001:773.238 JLINK_WriteReg(CFBP, 0x00000000)
T351C 001:773.278 - 0.059ms returns 0x00
T351C 001:773.324   JLINK_SetBPEx(Addr = 0x20000000, Type = 0xFFFFFFF2)
T351C 001:773.382 - 0.078ms returns 0x0000000F
T351C 001:773.425 JLINK_Go()
T351C 001:773.487    -- CPU_ReadMem(4 bytes @ 0xE0001000)
T351C 001:774.144    -- CPU_WriteMem(4 bytes @ 0xE0001000)
T351C 001:780.291 - 6.911ms
T351C 001:780.373 JLINK_IsHalted()
T351C 001:780.996 - 0.643ms returns FALSE
T351C 001:782.945 JLINK_IsHalted()
T351C 001:783.577 - 0.652ms returns FALSE
T351C 001:784.981 JLINK_IsHalted()
T351C 001:785.714 - 0.797ms returns FALSE
T351C 001:787.945 JLINK_IsHalted()
